
T14B0 000:093 SEGGER J-Link V4.50j Log File (0000ms, 0093ms total)
T14B0 000:093 DLL Compiled: Jun 26 2012 09:19:07 (0000ms, 0093ms total)
T14B0 000:093 Logging started @ 2014-12-22 13:50 (0000ms, 0093ms total)
T14B0 000:093 JLINK_SetWarnOutHandler(...) (0000ms, 0093ms total)
T14B0 000:093 JLINK_OpenEx(...)
Firmware: J-Link ARM V8 compiled Jun 19 2012 11:29:30
Hardware: V8.00
S/N: 304230680
Feature(s): RDI,FlashDL,FlashBP,JFlash,GDBFULL  returns O.K. (0052ms, 0145ms total)
T14B0 000:145 JLINK_SetErrorOutHandler(...) (0000ms, 0145ms total)
T14B0 000:145 JLINK_ExecCommand("Device = STM32F107xC", ...)
                JLINK_ExecCommand("map ram 0x20000000 - 0x20004FFF", ...)  returns 0x00 (0000ms, 0000ms total)
                JLINK_AddMirrorAreaEx(Addr = 0x00000000, Size = 0x00000000) (0000ms, 0000ms total)
              Device "STM32F107RC" selected (256 KB flash, 20 KB RAM).  returns 0x00 (0011ms, 0156ms total)
T14B0 000:156 JLINK_ExecCommand("ProjectFile = "F:\开发板\STM32F107网络学习板V3.0\开发板例程\裸机版\16通道ADC采集实验（裸机）\Project\RVMDK\JLinkSettings.ini"", ...)  returns 0x00 (0000ms, 0156ms total)
T14B0 000:159 JLINK_ExecCommand("DisableConnectionTimeout", ...)  returns 0x00 (0000ms, 0156ms total)
T14B0 000:159 JLINK_TIF_Select(JLINKARM_TIF_SWD)  returns 0x00 (0005ms, 0161ms total)
T14B0 000:164 JLINK_SetSpeed(2000) (0001ms, 0162ms total)
T14B0 000:165 JLINK_GetHardwareVersion()  returns 0x13880 (0000ms, 0162ms total)
T14B0 000:165 JLINK_GetDLLVersion()  returns 45010 (0000ms, 0162ms total)
T14B0 000:165 JLINK_GetFirmwareString(...) (0000ms, 0162ms total)
T14B0 000:174 JLINK_GetDLLVersion()  returns 45010 (0000ms, 0162ms total)
T14B0 000:174 JLINK_GetCompileDateTime() (0000ms, 0162ms total)
T14B0 000:176 JLINK_GetFirmwareString(...) (0000ms, 0162ms total)
T14B0 000:178 JLINK_GetHardwareVersion()  returns 0x13880 (0000ms, 0162ms total)
T14B0 000:195 JLINK_GetId() >0x108 TIF>Found SWD-DP with ID 0x1BA01477 >0x0D TIF> >0x28 TIF> >0x0D TIF> >0x28 TIF> >0x0D TIF> >0x21 TIF> >0x0D TIF> >0x28 TIF> >0x0D TIF> >0x28 TIF> >0x0D TIF> >0x28 TIF> >0x0D TIF> >0x21 TIF> >0x0D TIF> >0x21 TIF> >0x0D TIF> >0x28 TIF> >0x0D TIF> >0x21 TIF> >0x0D TIF> >0x21 TIF> >0x108 TIF>Found SWD-DP with ID 0x1BA01477 >0x0D TIF> >0x21 TIF> >0x0D TIF> >0x28 TIF> >0x0D TIF> >0x28 TIF> >0x0D TIF> >0x21 TIF> >0x0D TIF> >0x21 TIF> >0x0D TIF> >0x28 TIF> >0x0D TIF> >0x21 TIF>
 >0x0D TIF> >0x21 TIF> >0x0D TIF> >0x21 TIF> >0x0D TIF> >0x21 TIF> >0x0D TIF> >0x21 TIF> >0x0D TIF> >0x28 TIF> >0x0D TIF> >0x28 TIF> >0x0D TIF> >0x21 TIF> >0x0D TIF> >0x21 TIF> >0x0D TIF> >0x28 TIF> >0x0D TIF> >0x21 TIF> >0x0D TIF> >0x21 TIF> >0x0D TIF> >0x28 TIF> >0x0D TIF> >0x21 TIF> >0x0D TIF> >0x21 TIF> >0x0D TIF> >0x28 TIF> >0x0D TIF> >0x28 TIF> >0x0D TIF> >0x28 TIF> >0x0D TIF> >0x21 TIF> >0x0D TIF> >0x21 TIF> >0x0D TIF> >0x28 TIF> >0x0D TIF> >0x28 TIF> >0x0D TIF> >0x28 TIF> >0x0D TIF> >0x21 TIF>
 >0x0D TIF> >0x21 TIF> >0x0D TIF> >0x21 TIF>TPIU fitted.ETM fitted. >0x0D TIF> >0x28 TIF> >0x0D TIF> >0x21 TIF> >0x0D TIF> >0x21 TIF> >0x0D TIF> >0x28 TIF> >0x0D TIF> >0x21 TIF> >0x0D TIF> >0x21 TIF>FPUnit: 6 code (BP) slots and 2 literal slots >0x0D TIF> >0x28 TIF> >0x0D TIF> >0x21 TIF> >0x0D TIF> >0x21 TIF> >0x0D TIF> >0x28 TIF> >0x0D TIF> >0x21 TIF> >0x0D TIF> >0x21 TIF> >0x0D TIF> >0x28 TIF> >0x0D TIF> >0x21 TIF> >0x0D TIF> >0x21 TIF> >0x0D TIF> >0x28 TIF> >0x0D TIF> >0x21 TIF> >0x0D TIF> >0x21 TIF>
Found Cortex-M3 r1p1, Little endian. >0x0D TIF> >0x21 TIF>  returns 0x1BA01477 (0164ms, 0326ms total)
T14B0 000:359 JLINK_GetDebugInfo(0x100) -- Value=0xE00FF003  returns 0x00 (0000ms, 0326ms total)
T14B0 000:363 JLINK_ReadMem (0xE00FFFF0, 0x0010 Bytes, ...) -- CPU is running -- CPU_ReadMem(16 bytes @ 0xE00FFFF0) -- Data:  0D 00 00 00 10 00 00 00 05 00 00 00 B1 00 00 00  returns 0x00 (0001ms, 0327ms total)
T14B0 000:364 JLINK_ReadMem (0xE00FFFD0, 0x0020 Bytes, ...) -- CPU is running -- CPU_ReadMem(32 bytes @ 0xE00FFFD0) -- Data:  00 00 00 00 00 00 00 00 00 00 00 00 00 00 00 00 ...  returns 0x00 (0001ms, 0328ms total)
T14B0 000:365 JLINK_ReadMem (0xE00FF000, 0x0018 Bytes, ...) -- CPU is running -- CPU_ReadMem(24 bytes @ 0xE00FF000) -- Data:  03 F0 F0 FF 03 20 F0 FF 03 30 F0 FF 03 10 F0 FF ...  returns 0x00 (0001ms, 0329ms total)
T14B0 000:366 JLINK_ReadMemU32(0xE000ED00, 0x0001 Items, ...) -- CPU is running -- CPU_ReadMem(4 bytes @ 0xE000ED00) -- Data:  31 C2 1F 41  returns 0x01 (0001ms, 0330ms total)
T14B0 000:367 JLINK_SetResetType(JLINKARM_RESET_TYPE_NORMAL)  returns JLINKARM_RESET_TYPE_NORMAL (0000ms, 0330ms total)
T14B0 000:367 JLINK_Reset() -- CPU is running -- CPU_WriteMem(4 bytes @ 0xE000EDF0) -- CPU is running -- CPU_WriteMem(4 bytes @ 0xE000EDFC) >0x35 TIF> -- CPU is running -- CPU_WriteMem(4 bytes @ 0xE000ED0C) -- CPU is running -- CPU_ReadMem(4 bytes @ 0xE000EDF0) -- CPU is running -- CPU_ReadMem(4 bytes @ 0xE000EDF0) -- CPU is running -- CPU_WriteMem(4 bytes @ 0xE000EDF0) -- CPU is running -- CPU_WriteMem(4 bytes @ 0xE000EDFC) -- CPU is running -- CPU_ReadMem(4 bytes @ 0xE000EDF0)
 -- CPU_WriteMem(4 bytes @ 0xE0002000) (0022ms, 0352ms total)
T14B0 000:389 JLINK_Halt()  returns 0x00 (0000ms, 0352ms total)
T14B0 000:389 JLINK_IsHalted()  returns TRUE (0000ms, 0352ms total)
T14B0 000:389 JLINK_ReadMemU32(0xE000EDF0, 0x0001 Items, ...) -- CPU_ReadMem(4 bytes @ 0xE000EDF0) -- Data:  03 00 03 00  returns 0x01 (0001ms, 0353ms total)
T14B0 000:390 JLINK_WriteU32(0xE000EDF0, 0xA05F0003) -- CPU_WriteMem(4 bytes @ 0xE000EDF0)  returns 0x00 (0001ms, 0354ms total)
T14B0 000:391 JLINK_WriteU32(0xE000EDFC, 0x01000000) -- CPU_WriteMem(4 bytes @ 0xE000EDFC)  returns 0x00 (0001ms, 0355ms total)
T14B0 000:405 JLINK_GetHWStatus(...)  returns 0x00 (0001ms, 0356ms total)
T14B0 000:419 JLINK_GetNumBPUnits(Type = 0xFFFFFF00)  returns 0x06 (0000ms, 0356ms total)
T14B0 000:419 JLINK_GetNumBPUnits(Type = 0xF0)  returns 0x2000 (0000ms, 0356ms total)
T14B0 000:419 JLINK_GetNumWPUnits()  returns 0x04 (0000ms, 0356ms total)
T14B0 000:431 JLINK_GetSpeed()  returns 0x7D0 (0000ms, 0356ms total)
T14B0 000:437 JLINK_ReadMemU32(0xE000E004, 0x0001 Items, ...) -- CPU_ReadMem(4 bytes @ 0xE000E004) -- Data:  02 00 00 00  returns 0x01 (0001ms, 0357ms total)
T14B0 000:438 JLINK_ReadMemU32(0xE000E004, 0x0001 Items, ...) -- CPU_ReadMem(4 bytes @ 0xE000E004) -- Data:  02 00 00 00  returns 0x01 (0001ms, 0358ms total)
T14B0 000:439 JLINK_WriteMem(0xE0001000, 0x001C Bytes, ...) -- Data:  01 00 00 00 00 00 00 00 00 00 00 00 00 00 00 00 ... -- CPU_WriteMem(28 bytes @ 0xE0001000)  returns 0x1C (0001ms, 0359ms total)
T14B0 000:440 JLINK_ReadMem (0xE0001000, 0x001C Bytes, ...) -- CPU_ReadMem(28 bytes @ 0xE0001000) -- Data:  01 00 00 40 00 00 00 00 00 00 00 00 00 00 00 00 ...  returns 0x00 (0001ms, 0360ms total)
T14B0 000:441 JLINK_Halt()  returns 0x00 (0000ms, 0360ms total)
T14B0 000:441 JLINK_IsHalted()  returns TRUE (0000ms, 0360ms total)
T14B0 000:445 JLINK_WriteMem(0x20000000, 0x0164 Bytes, ...) -- Data:  00 BE 0A E0 0D 78 2D 06 68 40 08 24 40 00 00 D3 ... -- CPU_WriteMem(356 bytes @ 0x20000000)  returns 0x164 (0005ms, 0365ms total)
T14B0 000:450 JLINK_WriteReg(R0, 0x08000000)  returns 0x00 (0000ms, 0365ms total)
T14B0 000:450 JLINK_WriteReg(R1, 0x007A1200)  returns 0x00 (0000ms, 0365ms total)
T14B0 000:450 JLINK_WriteReg(R2, 0x00000001)  returns 0x00 (0000ms, 0365ms total)
T14B0 000:450 JLINK_WriteReg(R3, 0x00000000)  returns 0x00 (0000ms, 0365ms total)
T14B0 000:450 JLINK_WriteReg(R4, 0x00000000)  returns 0x00 (0000ms, 0365ms total)
T14B0 000:450 JLINK_WriteReg(R5, 0x00000000)  returns 0x00 (0000ms, 0365ms total)
T14B0 000:450 JLINK_WriteReg(R6, 0x00000000)  returns 0x00 (0000ms, 0365ms total)
T14B0 000:450 JLINK_WriteReg(R7, 0x00000000)  returns 0x00 (0000ms, 0365ms total)
T14B0 000:450 JLINK_WriteReg(R8, 0x00000000)  returns 0x00 (0000ms, 0365ms total)
T14B0 000:450 JLINK_WriteReg(R9, 0x20000160)  returns 0x00 (0000ms, 0365ms total)
T14B0 000:450 JLINK_WriteReg(R10, 0x00000000)  returns 0x00 (0000ms, 0365ms total)
T14B0 000:450 JLINK_WriteReg(R11, 0x00000000)  returns 0x00 (0000ms, 0365ms total)
T14B0 000:450 JLINK_WriteReg(R12, 0x00000000)  returns 0x00 (0000ms, 0365ms total)
T14B0 000:450 JLINK_WriteReg(R13, 0x20000800)  returns 0x00 (0000ms, 0365ms total)
T14B0 000:450 JLINK_WriteReg(R14, 0x20000001)  returns 0x00 (0000ms, 0365ms total)
T14B0 000:450 JLINK_WriteReg(R15, 0x20000038)  returns 0x00 (0000ms, 0365ms total)
T14B0 000:450 JLINK_WriteReg(XPSR, 0x01000000)  returns 0x00 (0000ms, 0365ms total)
T14B0 000:450 JLINK_WriteReg(MSP, 0x20000800)  returns 0x00 (0000ms, 0365ms total)
T14B0 000:450 JLINK_WriteReg(PSP, 0x20000800)  returns 0x00 (0000ms, 0365ms total)
T14B0 000:450 JLINK_WriteReg(CFBP, 0x00000000)  returns 0x00 (0000ms, 0365ms total)
T14B0 000:450 JLINK_SetBPEx(Addr = 0x20000000, Type = 0xFFFFFFF2) -- CPU_ReadMem(2 bytes @ 0x20000000)  returns 0x00000001 (0002ms, 0367ms total)
T14B0 000:452 JLINK_Go() -- CPU_WriteMem(2 bytes @ 0x20000000) -- CPU_WriteMem(4 bytes @ 0xE0002008) -- CPU_WriteMem(4 bytes @ 0xE000200C) -- CPU_WriteMem(4 bytes @ 0xE0002010) -- CPU_WriteMem(4 bytes @ 0xE0002014) -- CPU_WriteMem(4 bytes @ 0xE0002018) -- CPU_WriteMem(4 bytes @ 0xE000201C) (0010ms, 0377ms total)
T14B0 000:462 JLINK_IsHalted() -- CPU_ReadMem(2 bytes @ 0x20000000)  returns TRUE (0005ms, 0382ms total)
T14B0 000:467 JLINK_ReadReg(R15)  returns 0x20000000 (0000ms, 0377ms total)
T14B0 000:467 JLINK_ClrBPEx(BPHandle = 0x00000001)  returns 0x00 (0000ms, 0377ms total)
T14B0 000:467 JLINK_ReadReg(R0)  returns 0x00000000 (0000ms, 0377ms total)
T14B0 000:467 JLINK_WriteReg(R0, 0x08000000)  returns 0x00 (0000ms, 0377ms total)
T14B0 000:467 JLINK_WriteReg(R1, 0x00000800)  returns 0x00 (0000ms, 0377ms total)
T14B0 000:467 JLINK_WriteReg(R2, 0x000000FF)  returns 0x00 (0000ms, 0377ms total)
T14B0 000:467 JLINK_WriteReg(R3, 0x00000000)  returns 0x00 (0000ms, 0377ms total)
T14B0 000:467 JLINK_WriteReg(R4, 0x00000000)  returns 0x00 (0000ms, 0377ms total)
T14B0 000:467 JLINK_WriteReg(R5, 0x00000000)  returns 0x00 (0000ms, 0377ms total)
T14B0 000:467 JLINK_WriteReg(R6, 0x00000000)  returns 0x00 (0000ms, 0377ms total)
T14B0 000:467 JLINK_WriteReg(R7, 0x00000000)  returns 0x00 (0000ms, 0377ms total)
T14B0 000:467 JLINK_WriteReg(R8, 0x00000000)  returns 0x00 (0000ms, 0377ms total)
T14B0 000:467 JLINK_WriteReg(R9, 0x20000160)  returns 0x00 (0000ms, 0377ms total)
T14B0 000:467 JLINK_WriteReg(R10, 0x00000000)  returns 0x00 (0001ms, 0378ms total)
T14B0 000:468 JLINK_WriteReg(R11, 0x00000000)  returns 0x00 (0000ms, 0378ms total)
T14B0 000:468 JLINK_WriteReg(R12, 0x00000000)  returns 0x00 (0000ms, 0378ms total)
T14B0 000:468 JLINK_WriteReg(R13, 0x20000800)  returns 0x00 (0000ms, 0378ms total)
T14B0 000:468 JLINK_WriteReg(R14, 0x20000001)  returns 0x00 (0000ms, 0378ms total)
T14B0 000:468 JLINK_WriteReg(R15, 0x20000020)  returns 0x00 (0000ms, 0378ms total)
T14B0 000:468 JLINK_WriteReg(XPSR, 0x01000000)  returns 0x00 (0000ms, 0378ms total)
T14B0 000:468 JLINK_WriteReg(MSP, 0x20000800)  returns 0x00 (0000ms, 0378ms total)
T14B0 000:468 JLINK_WriteReg(PSP, 0x20000800)  returns 0x00 (0000ms, 0378ms total)
T14B0 000:468 JLINK_WriteReg(CFBP, 0x00000000)  returns 0x00 (0000ms, 0378ms total)
T14B0 000:468 JLINK_SetBPEx(Addr = 0x20000000, Type = 0xFFFFFFF2)  returns 0x00000002 (0000ms, 0378ms total)
T14B0 000:468 JLINK_Go() -- CPU_WriteMem(4 bytes @ 0xE0002008) -- CPU_WriteMem(4 bytes @ 0xE000200C) -- CPU_WriteMem(4 bytes @ 0xE0002010) -- CPU_WriteMem(4 bytes @ 0xE0002014) -- CPU_WriteMem(4 bytes @ 0xE0002018) -- CPU_WriteMem(4 bytes @ 0xE000201C) (0009ms, 0387ms total)
T14B0 000:477 JLINK_IsHalted() -- CPU_ReadMem(2 bytes @ 0x20000000)  returns TRUE (0005ms, 0392ms total)
T14B0 000:482 JLINK_ReadReg(R15)  returns 0x20000000 (0001ms, 0388ms total)
T14B0 000:483 JLINK_ClrBPEx(BPHandle = 0x00000002)  returns 0x00 (0000ms, 0388ms total)
T14B0 000:483 JLINK_ReadReg(R0)  returns 0x00000001 (0000ms, 0388ms total)
T14B0 000:483 JLINK_WriteReg(R0, 0x08000000)  returns 0x00 (0000ms, 0388ms total)
T14B0 000:483 JLINK_WriteReg(R1, 0x00000800)  returns 0x00 (0000ms, 0388ms total)
T14B0 000:483 JLINK_WriteReg(R2, 0x000000FF)  returns 0x00 (0000ms, 0388ms total)
T14B0 000:483 JLINK_WriteReg(R3, 0x00000000)  returns 0x00 (0000ms, 0388ms total)
T14B0 000:483 JLINK_WriteReg(R4, 0x00000000)  returns 0x00 (0000ms, 0388ms total)
T14B0 000:483 JLINK_WriteReg(R5, 0x00000000)  returns 0x00 (0000ms, 0388ms total)
T14B0 000:483 JLINK_WriteReg(R6, 0x00000000)  returns 0x00 (0000ms, 0388ms total)
T14B0 000:483 JLINK_WriteReg(R7, 0x00000000)  returns 0x00 (0000ms, 0388ms total)
T14B0 000:483 JLINK_WriteReg(R8, 0x00000000)  returns 0x00 (0000ms, 0388ms total)
T14B0 000:483 JLINK_WriteReg(R9, 0x20000160)  returns 0x00 (0000ms, 0388ms total)
T14B0 000:483 JLINK_WriteReg(R10, 0x00000000)  returns 0x00 (0000ms, 0388ms total)
T14B0 000:483 JLINK_WriteReg(R11, 0x00000000)  returns 0x00 (0000ms, 0388ms total)
T14B0 000:483 JLINK_WriteReg(R12, 0x00000000)  returns 0x00 (0000ms, 0388ms total)
T14B0 000:483 JLINK_WriteReg(R13, 0x20000800)  returns 0x00 (0000ms, 0388ms total)
T14B0 000:483 JLINK_WriteReg(R14, 0x20000001)  returns 0x00 (0000ms, 0388ms total)
T14B0 000:483 JLINK_WriteReg(R15, 0x200000B6)  returns 0x00 (0000ms, 0388ms total)
T14B0 000:483 JLINK_WriteReg(XPSR, 0x01000000)  returns 0x00 (0000ms, 0388ms total)
T14B0 000:483 JLINK_WriteReg(MSP, 0x20000800)  returns 0x00 (0000ms, 0388ms total)
T14B0 000:483 JLINK_WriteReg(PSP, 0x20000800)  returns 0x00 (0000ms, 0388ms total)
T14B0 000:483 JLINK_WriteReg(CFBP, 0x00000000)  returns 0x00 (0001ms, 0389ms total)
T14B0 000:484 JLINK_SetBPEx(Addr = 0x20000000, Type = 0xFFFFFFF2)  returns 0x00000003 (0000ms, 0389ms total)
T14B0 000:484 JLINK_Go() -- CPU_WriteMem(4 bytes @ 0xE0002008) -- CPU_WriteMem(4 bytes @ 0xE000200C) -- CPU_WriteMem(4 bytes @ 0xE0002010) -- CPU_WriteMem(4 bytes @ 0xE0002014) -- CPU_WriteMem(4 bytes @ 0xE0002018) -- CPU_WriteMem(4 bytes @ 0xE000201C) (0008ms, 0397ms total)
T14B0 000:492 JLINK_IsHalted()  returns FALSE (0001ms, 0398ms total)
T14B0 000:543 JLINK_IsHalted() -- CPU_ReadMem(2 bytes @ 0x20000000)  returns TRUE (0005ms, 0402ms total)
T14B0 000:548 JLINK_ReadReg(R15)  returns 0x20000000 (0000ms, 0397ms total)
T14B0 000:548 JLINK_ClrBPEx(BPHandle = 0x00000003)  returns 0x00 (0000ms, 0397ms total)
T14B0 000:548 JLINK_ReadReg(R0)  returns 0x00000000 (0000ms, 0397ms total)
T14B0 000:549 JLINK_WriteReg(R0, 0x08000800)  returns 0x00 (0000ms, 0397ms total)
T14B0 000:549 JLINK_WriteReg(R1, 0x00000800)  returns 0x00 (0000ms, 0397ms total)
T14B0 000:549 JLINK_WriteReg(R2, 0x000000FF)  returns 0x00 (0000ms, 0397ms total)
T14B0 000:549 JLINK_WriteReg(R3, 0x00000000)  returns 0x00 (0000ms, 0397ms total)
T14B0 000:549 JLINK_WriteReg(R4, 0x00000000)  returns 0x00 (0000ms, 0397ms total)
T14B0 000:549 JLINK_WriteReg(R5, 0x00000000)  returns 0x00 (0000ms, 0397ms total)
T14B0 000:549 JLINK_WriteReg(R6, 0x00000000)  returns 0x00 (0000ms, 0397ms total)
T14B0 000:549 JLINK_WriteReg(R7, 0x00000000)  returns 0x00 (0000ms, 0397ms total)
T14B0 000:549 JLINK_WriteReg(R8, 0x00000000)  returns 0x00 (0000ms, 0397ms total)
T14B0 000:549 JLINK_WriteReg(R9, 0x20000160)  returns 0x00 (0000ms, 0397ms total)
T14B0 000:549 JLINK_WriteReg(R10, 0x00000000)  returns 0x00 (0000ms, 0397ms total)
T14B0 000:550 JLINK_WriteReg(R11, 0x00000000)  returns 0x00 (0000ms, 0398ms total)
T14B0 000:550 JLINK_WriteReg(R12, 0x00000000)  returns 0x00 (0000ms, 0398ms total)
T14B0 000:550 JLINK_WriteReg(R13, 0x20000800)  returns 0x00 (0000ms, 0398ms total)
T14B0 000:550 JLINK_WriteReg(R14, 0x20000001)  returns 0x00 (0000ms, 0398ms total)
T14B0 000:550 JLINK_WriteReg(R15, 0x20000020)  returns 0x00 (0000ms, 0398ms total)
T14B0 000:550 JLINK_WriteReg(XPSR, 0x01000000)  returns 0x00 (0000ms, 0398ms total)
T14B0 000:550 JLINK_WriteReg(MSP, 0x20000800)  returns 0x00 (0000ms, 0398ms total)
T14B0 000:550 JLINK_WriteReg(PSP, 0x20000800)  returns 0x00 (0000ms, 0398ms total)
T14B0 000:550 JLINK_WriteReg(CFBP, 0x00000000)  returns 0x00 (0000ms, 0398ms total)
T14B0 000:550 JLINK_SetBPEx(Addr = 0x20000000, Type = 0xFFFFFFF2)  returns 0x00000004 (0000ms, 0398ms total)
T14B0 000:550 JLINK_Go() -- CPU_WriteMem(4 bytes @ 0xE0002008) -- CPU_WriteMem(4 bytes @ 0xE000200C) -- CPU_WriteMem(4 bytes @ 0xE0002010) -- CPU_WriteMem(4 bytes @ 0xE0002014) -- CPU_WriteMem(4 bytes @ 0xE0002018) -- CPU_WriteMem(4 bytes @ 0xE000201C) (0009ms, 0407ms total)
T14B0 000:559 JLINK_IsHalted() -- CPU_ReadMem(2 bytes @ 0x20000000)  returns TRUE (0005ms, 0412ms total)
T14B0 000:564 JLINK_ReadReg(R15)  returns 0x20000000 (0000ms, 0407ms total)
T14B0 000:564 JLINK_ClrBPEx(BPHandle = 0x00000004)  returns 0x00 (0000ms, 0407ms total)
T14B0 000:564 JLINK_ReadReg(R0)  returns 0x00000001 (0000ms, 0407ms total)
T14B0 000:564 JLINK_WriteReg(R0, 0x08000800)  returns 0x00 (0000ms, 0407ms total)
T14B0 000:564 JLINK_WriteReg(R1, 0x00000800)  returns 0x00 (0000ms, 0407ms total)
T14B0 000:564 JLINK_WriteReg(R2, 0x000000FF)  returns 0x00 (0000ms, 0407ms total)
T14B0 000:564 JLINK_WriteReg(R3, 0x00000000)  returns 0x00 (0000ms, 0407ms total)
T14B0 000:565 JLINK_WriteReg(R4, 0x00000000)  returns 0x00 (0000ms, 0408ms total)
T14B0 000:565 JLINK_WriteReg(R5, 0x00000000)  returns 0x00 (0000ms, 0408ms total)
T14B0 000:565 JLINK_WriteReg(R6, 0x00000000)  returns 0x00 (0000ms, 0408ms total)
T14B0 000:565 JLINK_WriteReg(R7, 0x00000000)  returns 0x00 (0000ms, 0408ms total)
T14B0 000:565 JLINK_WriteReg(R8, 0x00000000)  returns 0x00 (0000ms, 0408ms total)
T14B0 000:565 JLINK_WriteReg(R9, 0x20000160)  returns 0x00 (0000ms, 0408ms total)
T14B0 000:565 JLINK_WriteReg(R10, 0x00000000)  returns 0x00 (0000ms, 0408ms total)
T14B0 000:565 JLINK_WriteReg(R11, 0x00000000)  returns 0x00 (0000ms, 0408ms total)
T14B0 000:565 JLINK_WriteReg(R12, 0x00000000)  returns 0x00 (0000ms, 0408ms total)
T14B0 000:565 JLINK_WriteReg(R13, 0x20000800)  returns 0x00 (0000ms, 0408ms total)
T14B0 000:565 JLINK_WriteReg(R14, 0x20000001)  returns 0x00 (0000ms, 0408ms total)
T14B0 000:565 JLINK_WriteReg(R15, 0x200000B6)  returns 0x00 (0000ms, 0408ms total)
T14B0 000:565 JLINK_WriteReg(XPSR, 0x01000000)  returns 0x00 (0000ms, 0408ms total)
T14B0 000:565 JLINK_WriteReg(MSP, 0x20000800)  returns 0x00 (0000ms, 0408ms total)
T14B0 000:565 JLINK_WriteReg(PSP, 0x20000800)  returns 0x00 (0000ms, 0408ms total)
T14B0 000:565 JLINK_WriteReg(CFBP, 0x00000000)  returns 0x00 (0000ms, 0408ms total)
T14B0 000:565 JLINK_SetBPEx(Addr = 0x20000000, Type = 0xFFFFFFF2)  returns 0x00000005 (0000ms, 0408ms total)
T14B0 000:565 JLINK_Go() -- CPU_WriteMem(4 bytes @ 0xE0002008) -- CPU_WriteMem(4 bytes @ 0xE000200C) -- CPU_WriteMem(4 bytes @ 0xE0002010) -- CPU_WriteMem(4 bytes @ 0xE0002014) -- CPU_WriteMem(4 bytes @ 0xE0002018) -- CPU_WriteMem(4 bytes @ 0xE000201C) (0008ms, 0416ms total)
T14B0 000:573 JLINK_IsHalted()  returns FALSE (0001ms, 0417ms total)
T14B0 000:624 JLINK_IsHalted() -- CPU_ReadMem(2 bytes @ 0x20000000)  returns TRUE (0005ms, 0421ms total)
T14B0 000:629 JLINK_ReadReg(R15)  returns 0x20000000 (0000ms, 0416ms total)
T14B0 000:629 JLINK_ClrBPEx(BPHandle = 0x00000005)  returns 0x00 (0000ms, 0416ms total)
T14B0 000:629 JLINK_ReadReg(R0)  returns 0x00000000 (0000ms, 0416ms total)
T14B0 000:631 JLINK_WriteReg(R0, 0x08001000)  returns 0x00 (0000ms, 0416ms total)
T14B0 000:631 JLINK_WriteReg(R1, 0x00000800)  returns 0x00 (0000ms, 0416ms total)
T14B0 000:631 JLINK_WriteReg(R2, 0x000000FF)  returns 0x00 (0000ms, 0416ms total)
T14B0 000:631 JLINK_WriteReg(R3, 0x00000000)  returns 0x00 (0000ms, 0416ms total)
T14B0 000:631 JLINK_WriteReg(R4, 0x00000000)  returns 0x00 (0000ms, 0416ms total)
T14B0 000:631 JLINK_WriteReg(R5, 0x00000000)  returns 0x00 (0001ms, 0417ms total)
T14B0 000:632 JLINK_WriteReg(R6, 0x00000000)  returns 0x00 (0000ms, 0417ms total)
T14B0 000:632 JLINK_WriteReg(R7, 0x00000000)  returns 0x00 (0000ms, 0417ms total)
T14B0 000:632 JLINK_WriteReg(R8, 0x00000000)  returns 0x00 (0000ms, 0417ms total)
T14B0 000:632 JLINK_WriteReg(R9, 0x20000160)  returns 0x00 (0000ms, 0417ms total)
T14B0 000:632 JLINK_WriteReg(R10, 0x00000000)  returns 0x00 (0000ms, 0417ms total)
T14B0 000:632 JLINK_WriteReg(R11, 0x00000000)  returns 0x00 (0000ms, 0417ms total)
T14B0 000:632 JLINK_WriteReg(R12, 0x00000000)  returns 0x00 (0000ms, 0417ms total)
T14B0 000:632 JLINK_WriteReg(R13, 0x20000800)  returns 0x00 (0000ms, 0417ms total)
T14B0 000:632 JLINK_WriteReg(R14, 0x20000001)  returns 0x00 (0000ms, 0417ms total)
T14B0 000:632 JLINK_WriteReg(R15, 0x20000020)  returns 0x00 (0000ms, 0417ms total)
T14B0 000:632 JLINK_WriteReg(XPSR, 0x01000000)  returns 0x00 (0000ms, 0417ms total)
T14B0 000:632 JLINK_WriteReg(MSP, 0x20000800)  returns 0x00 (0000ms, 0417ms total)
T14B0 000:632 JLINK_WriteReg(PSP, 0x20000800)  returns 0x00 (0000ms, 0417ms total)
T14B0 000:632 JLINK_WriteReg(CFBP, 0x00000000)  returns 0x00 (0000ms, 0417ms total)
T14B0 000:632 JLINK_SetBPEx(Addr = 0x20000000, Type = 0xFFFFFFF2)  returns 0x00000006 (0000ms, 0417ms total)
T14B0 000:632 JLINK_Go() -- CPU_WriteMem(4 bytes @ 0xE0002008) -- CPU_WriteMem(4 bytes @ 0xE000200C) -- CPU_WriteMem(4 bytes @ 0xE0002010) -- CPU_WriteMem(4 bytes @ 0xE0002014) -- CPU_WriteMem(4 bytes @ 0xE0002018) -- CPU_WriteMem(4 bytes @ 0xE000201C) (0010ms, 0427ms total)
T14B0 000:642 JLINK_IsHalted() -- CPU_ReadMem(2 bytes @ 0x20000000)  returns TRUE (0005ms, 0432ms total)
T14B0 000:647 JLINK_ReadReg(R15)  returns 0x20000000 (0000ms, 0427ms total)
T14B0 000:647 JLINK_ClrBPEx(BPHandle = 0x00000006)  returns 0x00 (0000ms, 0427ms total)
T14B0 000:647 JLINK_ReadReg(R0)  returns 0x00000001 (0000ms, 0427ms total)
T14B0 000:647 JLINK_WriteReg(R0, 0x08001000)  returns 0x00 (0000ms, 0427ms total)
T14B0 000:647 JLINK_WriteReg(R1, 0x00000800)  returns 0x00 (0000ms, 0427ms total)
T14B0 000:647 JLINK_WriteReg(R2, 0x000000FF)  returns 0x00 (0000ms, 0427ms total)
T14B0 000:647 JLINK_WriteReg(R3, 0x00000000)  returns 0x00 (0000ms, 0427ms total)
T14B0 000:647 JLINK_WriteReg(R4, 0x00000000)  returns 0x00 (0000ms, 0427ms total)
T14B0 000:647 JLINK_WriteReg(R5, 0x00000000)  returns 0x00 (0000ms, 0427ms total)
T14B0 000:647 JLINK_WriteReg(R6, 0x00000000)  returns 0x00 (0000ms, 0427ms total)
T14B0 000:647 JLINK_WriteReg(R7, 0x00000000)  returns 0x00 (0000ms, 0427ms total)
T14B0 000:647 JLINK_WriteReg(R8, 0x00000000)  returns 0x00 (0000ms, 0427ms total)
T14B0 000:647 JLINK_WriteReg(R9, 0x20000160)  returns 0x00 (0000ms, 0427ms total)
T14B0 000:647 JLINK_WriteReg(R10, 0x00000000)  returns 0x00 (0000ms, 0427ms total)
T14B0 000:647 JLINK_WriteReg(R11, 0x00000000)  returns 0x00 (0000ms, 0427ms total)
T14B0 000:647 JLINK_WriteReg(R12, 0x00000000)  returns 0x00 (0000ms, 0427ms total)
T14B0 000:647 JLINK_WriteReg(R13, 0x20000800)  returns 0x00 (0001ms, 0428ms total)
T14B0 000:648 JLINK_WriteReg(R14, 0x20000001)  returns 0x00 (0000ms, 0428ms total)
T14B0 000:648 JLINK_WriteReg(R15, 0x200000B6)  returns 0x00 (0000ms, 0428ms total)
T14B0 000:648 JLINK_WriteReg(XPSR, 0x01000000)  returns 0x00 (0000ms, 0428ms total)
T14B0 000:648 JLINK_WriteReg(MSP, 0x20000800)  returns 0x00 (0000ms, 0428ms total)
T14B0 000:648 JLINK_WriteReg(PSP, 0x20000800)  returns 0x00 (0000ms, 0428ms total)
T14B0 000:648 JLINK_WriteReg(CFBP, 0x00000000)  returns 0x00 (0000ms, 0428ms total)
T14B0 000:648 JLINK_SetBPEx(Addr = 0x20000000, Type = 0xFFFFFFF2)  returns 0x00000007 (0000ms, 0428ms total)
T14B0 000:648 JLINK_Go() -- CPU_WriteMem(4 bytes @ 0xE0002008) -- CPU_WriteMem(4 bytes @ 0xE000200C) -- CPU_WriteMem(4 bytes @ 0xE0002010) -- CPU_WriteMem(4 bytes @ 0xE0002014) -- CPU_WriteMem(4 bytes @ 0xE0002018) -- CPU_WriteMem(4 bytes @ 0xE000201C) (0008ms, 0436ms total)
T14B0 000:656 JLINK_IsHalted()  returns FALSE (0001ms, 0437ms total)
T14B0 000:707 JLINK_IsHalted() -- CPU_ReadMem(2 bytes @ 0x20000000)  returns TRUE (0005ms, 0441ms total)
T14B0 000:712 JLINK_ReadReg(R15)  returns 0x20000000 (0000ms, 0436ms total)
T14B0 000:712 JLINK_ClrBPEx(BPHandle = 0x00000007)  returns 0x00 (0000ms, 0436ms total)
T14B0 000:712 JLINK_ReadReg(R0)  returns 0x00000000 (0000ms, 0436ms total)
T14B0 000:713 JLINK_WriteReg(R0, 0x08001800)  returns 0x00 (0000ms, 0436ms total)
T14B0 000:713 JLINK_WriteReg(R1, 0x00000800)  returns 0x00 (0000ms, 0436ms total)
T14B0 000:713 JLINK_WriteReg(R2, 0x000000FF)  returns 0x00 (0000ms, 0436ms total)
T14B0 000:713 JLINK_WriteReg(R3, 0x00000000)  returns 0x00 (0000ms, 0436ms total)
T14B0 000:713 JLINK_WriteReg(R4, 0x00000000)  returns 0x00 (0000ms, 0436ms total)
T14B0 000:713 JLINK_WriteReg(R5, 0x00000000)  returns 0x00 (0000ms, 0436ms total)
T14B0 000:713 JLINK_WriteReg(R6, 0x00000000)  returns 0x00 (0000ms, 0436ms total)
T14B0 000:713 JLINK_WriteReg(R7, 0x00000000)  returns 0x00 (0000ms, 0436ms total)
T14B0 000:713 JLINK_WriteReg(R8, 0x00000000)  returns 0x00 (0000ms, 0436ms total)
T14B0 000:713 JLINK_WriteReg(R9, 0x20000160)  returns 0x00 (0000ms, 0436ms total)
T14B0 000:714 JLINK_WriteReg(R10, 0x00000000)  returns 0x00 (0000ms, 0436ms total)
T14B0 000:714 JLINK_WriteReg(R11, 0x00000000)  returns 0x00 (0000ms, 0436ms total)
T14B0 000:714 JLINK_WriteReg(R12, 0x00000000)  returns 0x00 (0000ms, 0436ms total)
T14B0 000:714 JLINK_WriteReg(R13, 0x20000800)  returns 0x00 (0000ms, 0436ms total)
T14B0 000:714 JLINK_WriteReg(R14, 0x20000001)  returns 0x00 (0000ms, 0436ms total)
T14B0 000:714 JLINK_WriteReg(R15, 0x20000020)  returns 0x00 (0000ms, 0436ms total)
T14B0 000:714 JLINK_WriteReg(XPSR, 0x01000000)  returns 0x00 (0000ms, 0436ms total)
T14B0 000:714 JLINK_WriteReg(MSP, 0x20000800)  returns 0x00 (0000ms, 0436ms total)
T14B0 000:714 JLINK_WriteReg(PSP, 0x20000800)  returns 0x00 (0000ms, 0436ms total)
T14B0 000:714 JLINK_WriteReg(CFBP, 0x00000000)  returns 0x00 (0000ms, 0436ms total)
T14B0 000:714 JLINK_SetBPEx(Addr = 0x20000000, Type = 0xFFFFFFF2)  returns 0x00000008 (0000ms, 0436ms total)
T14B0 000:714 JLINK_Go() -- CPU_WriteMem(4 bytes @ 0xE0002008) -- CPU_WriteMem(4 bytes @ 0xE000200C) -- CPU_WriteMem(4 bytes @ 0xE0002010) -- CPU_WriteMem(4 bytes @ 0xE0002014) -- CPU_WriteMem(4 bytes @ 0xE0002018) -- CPU_WriteMem(4 bytes @ 0xE000201C) (0009ms, 0445ms total)
T14B0 000:723 JLINK_IsHalted() -- CPU_ReadMem(2 bytes @ 0x20000000)  returns TRUE (0005ms, 0450ms total)
T14B0 000:728 JLINK_ReadReg(R15)  returns 0x20000000 (0000ms, 0445ms total)
T14B0 000:728 JLINK_ClrBPEx(BPHandle = 0x00000008)  returns 0x00 (0000ms, 0445ms total)
T14B0 000:728 JLINK_ReadReg(R0)  returns 0x00000001 (0000ms, 0445ms total)
T14B0 000:728 JLINK_WriteReg(R0, 0x08001800)  returns 0x00 (0000ms, 0445ms total)
T14B0 000:729 JLINK_WriteReg(R1, 0x00000800)  returns 0x00 (0000ms, 0446ms total)
T14B0 000:729 JLINK_WriteReg(R2, 0x000000FF)  returns 0x00 (0000ms, 0446ms total)
T14B0 000:729 JLINK_WriteReg(R3, 0x00000000)  returns 0x00 (0000ms, 0446ms total)
T14B0 000:729 JLINK_WriteReg(R4, 0x00000000)  returns 0x00 (0000ms, 0446ms total)
T14B0 000:729 JLINK_WriteReg(R5, 0x00000000)  returns 0x00 (0000ms, 0446ms total)
T14B0 000:729 JLINK_WriteReg(R6, 0x00000000)  returns 0x00 (0000ms, 0446ms total)
T14B0 000:729 JLINK_WriteReg(R7, 0x00000000)  returns 0x00 (0000ms, 0446ms total)
T14B0 000:729 JLINK_WriteReg(R8, 0x00000000)  returns 0x00 (0000ms, 0446ms total)
T14B0 000:729 JLINK_WriteReg(R9, 0x20000160)  returns 0x00 (0000ms, 0446ms total)
T14B0 000:729 JLINK_WriteReg(R10, 0x00000000)  returns 0x00 (0000ms, 0446ms total)
T14B0 000:729 JLINK_WriteReg(R11, 0x00000000)  returns 0x00 (0000ms, 0446ms total)
T14B0 000:729 JLINK_WriteReg(R12, 0x00000000)  returns 0x00 (0000ms, 0446ms total)
T14B0 000:729 JLINK_WriteReg(R13, 0x20000800)  returns 0x00 (0000ms, 0446ms total)
T14B0 000:729 JLINK_WriteReg(R14, 0x20000001)  returns 0x00 (0000ms, 0446ms total)
T14B0 000:729 JLINK_WriteReg(R15, 0x200000B6)  returns 0x00 (0000ms, 0446ms total)
T14B0 000:729 JLINK_WriteReg(XPSR, 0x01000000)  returns 0x00 (0000ms, 0446ms total)
T14B0 000:729 JLINK_WriteReg(MSP, 0x20000800)  returns 0x00 (0000ms, 0446ms total)
T14B0 000:729 JLINK_WriteReg(PSP, 0x20000800)  returns 0x00 (0001ms, 0447ms total)
T14B0 000:730 JLINK_WriteReg(CFBP, 0x00000000)  returns 0x00 (0000ms, 0447ms total)
T14B0 000:730 JLINK_SetBPEx(Addr = 0x20000000, Type = 0xFFFFFFF2)  returns 0x00000009 (0000ms, 0447ms total)
T14B0 000:730 JLINK_Go() -- CPU_WriteMem(4 bytes @ 0xE0002008) -- CPU_WriteMem(4 bytes @ 0xE000200C) -- CPU_WriteMem(4 bytes @ 0xE0002010) -- CPU_WriteMem(4 bytes @ 0xE0002014) -- CPU_WriteMem(4 bytes @ 0xE0002018) -- CPU_WriteMem(4 bytes @ 0xE000201C) (0008ms, 0455ms total)
T14B0 000:738 JLINK_IsHalted()  returns FALSE (0001ms, 0456ms total)
T14B0 000:789 JLINK_IsHalted() -- CPU_ReadMem(2 bytes @ 0x20000000)  returns TRUE (0005ms, 0460ms total)
T14B0 000:794 JLINK_ReadReg(R15)  returns 0x20000000 (0001ms, 0456ms total)
T14B0 000:795 JLINK_ClrBPEx(BPHandle = 0x00000009)  returns 0x00 (0000ms, 0456ms total)
T14B0 000:795 JLINK_ReadReg(R0)  returns 0x00000000 (0000ms, 0456ms total)
T14B0 000:795 JLINK_WriteReg(R0, 0x00000001)  returns 0x00 (0000ms, 0456ms total)
T14B0 000:795 JLINK_WriteReg(R1, 0x00000800)  returns 0x00 (0001ms, 0457ms total)
T14B0 000:796 JLINK_WriteReg(R2, 0x000000FF)  returns 0x00 (0000ms, 0457ms total)
T14B0 000:796 JLINK_WriteReg(R3, 0x00000000)  returns 0x00 (0000ms, 0457ms total)
T14B0 000:796 JLINK_WriteReg(R4, 0x00000000)  returns 0x00 (0000ms, 0457ms total)
T14B0 000:796 JLINK_WriteReg(R5, 0x00000000)  returns 0x00 (0000ms, 0457ms total)
T14B0 000:796 JLINK_WriteReg(R6, 0x00000000)  returns 0x00 (0000ms, 0457ms total)
T14B0 000:796 JLINK_WriteReg(R7, 0x00000000)  returns 0x00 (0000ms, 0457ms total)
T14B0 000:796 JLINK_WriteReg(R8, 0x00000000)  returns 0x00 (0000ms, 0457ms total)
T14B0 000:796 JLINK_WriteReg(R9, 0x20000160)  returns 0x00 (0000ms, 0457ms total)
T14B0 000:796 JLINK_WriteReg(R10, 0x00000000)  returns 0x00 (0000ms, 0457ms total)
T14B0 000:796 JLINK_WriteReg(R11, 0x00000000)  returns 0x00 (0000ms, 0457ms total)
T14B0 000:796 JLINK_WriteReg(R12, 0x00000000)  returns 0x00 (0000ms, 0457ms total)
T14B0 000:796 JLINK_WriteReg(R13, 0x20000800)  returns 0x00 (0000ms, 0457ms total)
T14B0 000:796 JLINK_WriteReg(R14, 0x20000001)  returns 0x00 (0000ms, 0457ms total)
T14B0 000:796 JLINK_WriteReg(R15, 0x2000006A)  returns 0x00 (0000ms, 0457ms total)
T14B0 000:796 JLINK_WriteReg(XPSR, 0x01000000)  returns 0x00 (0000ms, 0457ms total)
T14B0 000:796 JLINK_WriteReg(MSP, 0x20000800)  returns 0x00 (0000ms, 0457ms total)
T14B0 000:796 JLINK_WriteReg(PSP, 0x20000800)  returns 0x00 (0000ms, 0457ms total)
T14B0 000:796 JLINK_WriteReg(CFBP, 0x00000000)  returns 0x00 (0000ms, 0457ms total)
T14B0 000:796 JLINK_SetBPEx(Addr = 0x20000000, Type = 0xFFFFFFF2)  returns 0x0000000A (0001ms, 0458ms total)
T14B0 000:797 JLINK_Go() -- CPU_WriteMem(4 bytes @ 0xE0002008) -- CPU_WriteMem(4 bytes @ 0xE000200C) -- CPU_WriteMem(4 bytes @ 0xE0002010) -- CPU_WriteMem(4 bytes @ 0xE0002014) -- CPU_WriteMem(4 bytes @ 0xE0002018) -- CPU_WriteMem(4 bytes @ 0xE000201C) (0009ms, 0467ms total)
T14B0 000:806 JLINK_IsHalted() -- CPU_ReadMem(2 bytes @ 0x20000000)  returns TRUE (0005ms, 0472ms total)
T14B0 000:811 JLINK_ReadReg(R15)  returns 0x20000000 (0000ms, 0467ms total)
T14B0 000:811 JLINK_ClrBPEx(BPHandle = 0x0000000A)  returns 0x00 (0000ms, 0467ms total)
T14B0 000:811 JLINK_ReadReg(R0)  returns 0x00000000 (0000ms, 0467ms total)
T14B0 000:876 JLINK_WriteMem(0x20000000, 0x0164 Bytes, ...) -- Data:  00 BE 0A E0 0D 78 2D 06 68 40 08 24 40 00 00 D3 ... -- CPU_WriteMem(356 bytes @ 0x20000000)  returns 0x164 (0005ms, 0472ms total)
T14B0 000:882 JLINK_WriteReg(R0, 0x08000000)  returns 0x00 (0000ms, 0472ms total)
T14B0 000:882 JLINK_WriteReg(R1, 0x007A1200)  returns 0x00 (0000ms, 0472ms total)
T14B0 000:882 JLINK_WriteReg(R2, 0x00000002)  returns 0x00 (0000ms, 0472ms total)
T14B0 000:882 JLINK_WriteReg(R3, 0x00000000)  returns 0x00 (0000ms, 0472ms total)
T14B0 000:882 JLINK_WriteReg(R4, 0x00000000)  returns 0x00 (0000ms, 0472ms total)
T14B0 000:882 JLINK_WriteReg(R5, 0x00000000)  returns 0x00 (0000ms, 0472ms total)
T14B0 000:882 JLINK_WriteReg(R6, 0x00000000)  returns 0x00 (0000ms, 0472ms total)
T14B0 000:882 JLINK_WriteReg(R7, 0x00000000)  returns 0x00 (0000ms, 0472ms total)
T14B0 000:882 JLINK_WriteReg(R8, 0x00000000)  returns 0x00 (0000ms, 0472ms total)
T14B0 000:882 JLINK_WriteReg(R9, 0x20000160)  returns 0x00 (0000ms, 0472ms total)
T14B0 000:882 JLINK_WriteReg(R10, 0x00000000)  returns 0x00 (0000ms, 0472ms total)
T14B0 000:882 JLINK_WriteReg(R11, 0x00000000)  returns 0x00 (0000ms, 0472ms total)
T14B0 000:882 JLINK_WriteReg(R12, 0x00000000)  returns 0x00 (0000ms, 0472ms total)
T14B0 000:882 JLINK_WriteReg(R13, 0x20000800)  returns 0x00 (0000ms, 0472ms total)
T14B0 000:882 JLINK_WriteReg(R14, 0x20000001)  returns 0x00 (0000ms, 0472ms total)
T14B0 000:882 JLINK_WriteReg(R15, 0x20000038)  returns 0x00 (0001ms, 0473ms total)
T14B0 000:883 JLINK_WriteReg(XPSR, 0x01000000)  returns 0x00 (0000ms, 0473ms total)
T14B0 000:883 JLINK_WriteReg(MSP, 0x20000800)  returns 0x00 (0000ms, 0473ms total)
T14B0 000:883 JLINK_WriteReg(PSP, 0x20000800)  returns 0x00 (0000ms, 0473ms total)
T14B0 000:883 JLINK_WriteReg(CFBP, 0x00000000)  returns 0x00 (0000ms, 0473ms total)
T14B0 000:883 JLINK_SetBPEx(Addr = 0x20000000, Type = 0xFFFFFFF2) -- CPU_ReadMem(2 bytes @ 0x20000000)  returns 0x0000000B (0001ms, 0474ms total)
T14B0 000:884 JLINK_Go() -- CPU_WriteMem(2 bytes @ 0x20000000) -- CPU_WriteMem(4 bytes @ 0xE0002008) -- CPU_WriteMem(4 bytes @ 0xE000200C) -- CPU_WriteMem(4 bytes @ 0xE0002010) -- CPU_WriteMem(4 bytes @ 0xE0002014) -- CPU_WriteMem(4 bytes @ 0xE0002018) -- CPU_WriteMem(4 bytes @ 0xE000201C) (0010ms, 0484ms total)
T14B0 000:894 JLINK_IsHalted() -- CPU_ReadMem(2 bytes @ 0x20000000)  returns TRUE (0005ms, 0489ms total)
T14B0 000:899 JLINK_ReadReg(R15)  returns 0x20000000 (0000ms, 0484ms total)
T14B0 000:899 JLINK_ClrBPEx(BPHandle = 0x0000000B)  returns 0x00 (0000ms, 0484ms total)
T14B0 000:899 JLINK_ReadReg(R0)  returns 0x00000000 (0000ms, 0484ms total)
T14B0 000:900 JLINK_WriteMem(0x20000164, 0x0400 Bytes, ...) -- Data:  18 05 00 20 65 01 00 08 FD 0D 00 08 F9 0D 00 08 ... -- CPU_WriteMem(1024 bytes @ 0x20000164)  returns 0x400 (0012ms, 0496ms total)
T14B0 000:912 JLINK_WriteReg(R0, 0x08000000)  returns 0x00 (0000ms, 0496ms total)
T14B0 000:912 JLINK_WriteReg(R1, 0x00000400)  returns 0x00 (0001ms, 0497ms total)
T14B0 000:913 JLINK_WriteReg(R2, 0x20000164)  returns 0x00 (0000ms, 0497ms total)
T14B0 000:913 JLINK_WriteReg(R3, 0x00000000)  returns 0x00 (0000ms, 0497ms total)
T14B0 000:913 JLINK_WriteReg(R4, 0x00000000)  returns 0x00 (0000ms, 0497ms total)
T14B0 000:913 JLINK_WriteReg(R5, 0x00000000)  returns 0x00 (0000ms, 0497ms total)
T14B0 000:913 JLINK_WriteReg(R6, 0x00000000)  returns 0x00 (0000ms, 0497ms total)
T14B0 000:913 JLINK_WriteReg(R7, 0x00000000)  returns 0x00 (0000ms, 0497ms total)
T14B0 000:913 JLINK_WriteReg(R8, 0x00000000)  returns 0x00 (0000ms, 0497ms total)
T14B0 000:913 JLINK_WriteReg(R9, 0x20000160)  returns 0x00 (0000ms, 0497ms total)
T14B0 000:913 JLINK_WriteReg(R10, 0x00000000)  returns 0x00 (0000ms, 0497ms total)
T14B0 000:913 JLINK_WriteReg(R11, 0x00000000)  returns 0x00 (0000ms, 0497ms total)
T14B0 000:913 JLINK_WriteReg(R12, 0x00000000)  returns 0x00 (0000ms, 0497ms total)
T14B0 000:913 JLINK_WriteReg(R13, 0x20000800)  returns 0x00 (0000ms, 0497ms total)
T14B0 000:913 JLINK_WriteReg(R14, 0x20000001)  returns 0x00 (0000ms, 0497ms total)
T14B0 000:913 JLINK_WriteReg(R15, 0x200000F4)  returns 0x00 (0000ms, 0497ms total)
T14B0 000:913 JLINK_WriteReg(XPSR, 0x01000000)  returns 0x00 (0000ms, 0497ms total)
T14B0 000:913 JLINK_WriteReg(MSP, 0x20000800)  returns 0x00 (0000ms, 0497ms total)
T14B0 000:913 JLINK_WriteReg(PSP, 0x20000800)  returns 0x00 (0000ms, 0497ms total)
T14B0 000:913 JLINK_WriteReg(CFBP, 0x00000000)  returns 0x00 (0001ms, 0498ms total)
T14B0 000:914 JLINK_SetBPEx(Addr = 0x20000000, Type = 0xFFFFFFF2)  returns 0x0000000C (0000ms, 0498ms total)
T14B0 000:914 JLINK_Go() -- CPU_WriteMem(4 bytes @ 0xE0002008) -- CPU_WriteMem(4 bytes @ 0xE000200C) -- CPU_WriteMem(4 bytes @ 0xE0002010) -- CPU_WriteMem(4 bytes @ 0xE0002014) -- CPU_WriteMem(4 bytes @ 0xE0002018) -- CPU_WriteMem(4 bytes @ 0xE000201C) (0008ms, 0506ms total)
T14B0 000:922 JLINK_IsHalted()  returns FALSE (0001ms, 0507ms total)
T14B0 000:973 JLINK_IsHalted() -- CPU_ReadMem(2 bytes @ 0x20000000)  returns TRUE (0005ms, 0511ms total)
T14B0 000:978 JLINK_ReadReg(R15)  returns 0x20000000 (0000ms, 0506ms total)
T14B0 000:979 JLINK_ClrBPEx(BPHandle = 0x0000000C)  returns 0x00 (0000ms, 0507ms total)
T14B0 000:979 JLINK_ReadReg(R0)  returns 0x00000000 (0000ms, 0507ms total)
T14B0 000:980 JLINK_WriteMem(0x20000164, 0x0400 Bytes, ...) -- Data:  01 00 10 BC 70 47 10 B5 00 2B 08 DA 40 1C 41 F1 ... -- CPU_WriteMem(1024 bytes @ 0x20000164)  returns 0x400 (0012ms, 0519ms total)
T14B0 000:992 JLINK_WriteReg(R0, 0x08000400)  returns 0x00 (0000ms, 0519ms total)
T14B0 000:992 JLINK_WriteReg(R1, 0x00000400)  returns 0x00 (0000ms, 0519ms total)
T14B0 000:992 JLINK_WriteReg(R2, 0x20000164)  returns 0x00 (0000ms, 0519ms total)
T14B0 000:992 JLINK_WriteReg(R3, 0x00000000)  returns 0x00 (0000ms, 0519ms total)
T14B0 000:992 JLINK_WriteReg(R4, 0x00000000)  returns 0x00 (0000ms, 0519ms total)
T14B0 000:992 JLINK_WriteReg(R5, 0x00000000)  returns 0x00 (0000ms, 0519ms total)
T14B0 000:993 JLINK_WriteReg(R6, 0x00000000)  returns 0x00 (0000ms, 0519ms total)
T14B0 000:993 JLINK_WriteReg(R7, 0x00000000)  returns 0x00 (0000ms, 0519ms total)
T14B0 000:993 JLINK_WriteReg(R8, 0x00000000)  returns 0x00 (0000ms, 0519ms total)
T14B0 000:993 JLINK_WriteReg(R9, 0x20000160)  returns 0x00 (0000ms, 0519ms total)
T14B0 000:993 JLINK_WriteReg(R10, 0x00000000)  returns 0x00 (0000ms, 0519ms total)
T14B0 000:993 JLINK_WriteReg(R11, 0x00000000)  returns 0x00 (0000ms, 0519ms total)
T14B0 000:993 JLINK_WriteReg(R12, 0x00000000)  returns 0x00 (0000ms, 0519ms total)
T14B0 000:993 JLINK_WriteReg(R13, 0x20000800)  returns 0x00 (0000ms, 0519ms total)
T14B0 000:993 JLINK_WriteReg(R14, 0x20000001)  returns 0x00 (0000ms, 0519ms total)
T14B0 000:993 JLINK_WriteReg(R15, 0x200000F4)  returns 0x00 (0000ms, 0519ms total)
T14B0 000:993 JLINK_WriteReg(XPSR, 0x01000000)  returns 0x00 (0000ms, 0519ms total)
T14B0 000:993 JLINK_WriteReg(MSP, 0x20000800)  returns 0x00 (0000ms, 0519ms total)
T14B0 000:993 JLINK_WriteReg(PSP, 0x20000800)  returns 0x00 (0000ms, 0519ms total)
T14B0 000:993 JLINK_WriteReg(CFBP, 0x00000000)  returns 0x00 (0000ms, 0519ms total)
T14B0 000:993 JLINK_SetBPEx(Addr = 0x20000000, Type = 0xFFFFFFF2)  returns 0x0000000D (0000ms, 0519ms total)
T14B0 000:993 JLINK_Go() -- CPU_WriteMem(4 bytes @ 0xE0002008) -- CPU_WriteMem(4 bytes @ 0xE000200C) -- CPU_WriteMem(4 bytes @ 0xE0002010) -- CPU_WriteMem(4 bytes @ 0xE0002014) -- CPU_WriteMem(4 bytes @ 0xE0002018) -- CPU_WriteMem(4 bytes @ 0xE000201C) (0009ms, 0528ms total)
T14B0 001:002 JLINK_IsHalted()  returns FALSE (0002ms, 0530ms total)
T14B0 001:054 JLINK_IsHalted() -- CPU_ReadMem(2 bytes @ 0x20000000)  returns TRUE (0005ms, 0533ms total)
T14B0 001:059 JLINK_ReadReg(R15)  returns 0x20000000 (0000ms, 0528ms total)
T14B0 001:059 JLINK_ClrBPEx(BPHandle = 0x0000000D)  returns 0x00 (0000ms, 0528ms total)
T14B0 001:059 JLINK_ReadReg(R0)  returns 0x00000000 (0000ms, 0528ms total)
T14B0 001:060 JLINK_WriteMem(0x20000164, 0x0400 Bytes, ...) -- Data:  CD F9 6A 48 00 90 6A 48 01 A9 00 24 10 27 91 C1 ... -- CPU_WriteMem(1024 bytes @ 0x20000164)  returns 0x400 (0013ms, 0541ms total)
T14B0 001:073 JLINK_WriteReg(R0, 0x08000800)  returns 0x00 (0001ms, 0542ms total)
T14B0 001:074 JLINK_WriteReg(R1, 0x00000400)  returns 0x00 (0000ms, 0542ms total)
T14B0 001:074 JLINK_WriteReg(R2, 0x20000164)  returns 0x00 (0000ms, 0542ms total)
T14B0 001:074 JLINK_WriteReg(R3, 0x00000000)  returns 0x00 (0000ms, 0542ms total)
T14B0 001:074 JLINK_WriteReg(R4, 0x00000000)  returns 0x00 (0000ms, 0542ms total)
T14B0 001:074 JLINK_WriteReg(R5, 0x00000000)  returns 0x00 (0000ms, 0542ms total)
T14B0 001:074 JLINK_WriteReg(R6, 0x00000000)  returns 0x00 (0000ms, 0542ms total)
T14B0 001:074 JLINK_WriteReg(R7, 0x00000000)  returns 0x00 (0000ms, 0542ms total)
T14B0 001:074 JLINK_WriteReg(R8, 0x00000000)  returns 0x00 (0000ms, 0542ms total)
T14B0 001:074 JLINK_WriteReg(R9, 0x20000160)  returns 0x00 (0000ms, 0542ms total)
T14B0 001:074 JLINK_WriteReg(R10, 0x00000000)  returns 0x00 (0000ms, 0542ms total)
T14B0 001:074 JLINK_WriteReg(R11, 0x00000000)  returns 0x00 (0000ms, 0542ms total)
T14B0 001:074 JLINK_WriteReg(R12, 0x00000000)  returns 0x00 (0000ms, 0542ms total)
T14B0 001:074 JLINK_WriteReg(R13, 0x20000800)  returns 0x00 (0000ms, 0542ms total)
T14B0 001:074 JLINK_WriteReg(R14, 0x20000001)  returns 0x00 (0000ms, 0542ms total)
T14B0 001:074 JLINK_WriteReg(R15, 0x200000F4)  returns 0x00 (0000ms, 0542ms total)
T14B0 001:074 JLINK_WriteReg(XPSR, 0x01000000)  returns 0x00 (0000ms, 0542ms total)
T14B0 001:074 JLINK_WriteReg(MSP, 0x20000800)  returns 0x00 (0000ms, 0542ms total)
T14B0 001:074 JLINK_WriteReg(PSP, 0x20000800)  returns 0x00 (0000ms, 0542ms total)
T14B0 001:075 JLINK_WriteReg(CFBP, 0x00000000)  returns 0x00 (0000ms, 0542ms total)
T14B0 001:075 JLINK_SetBPEx(Addr = 0x20000000, Type = 0xFFFFFFF2)  returns 0x0000000E (0000ms, 0542ms total)
T14B0 001:075 JLINK_Go() -- CPU_WriteMem(4 bytes @ 0xE0002008) -- CPU_WriteMem(4 bytes @ 0xE000200C) -- CPU_WriteMem(4 bytes @ 0xE0002010) -- CPU_WriteMem(4 bytes @ 0xE0002014) -- CPU_WriteMem(4 bytes @ 0xE0002018) -- CPU_WriteMem(4 bytes @ 0xE000201C) (0009ms, 0551ms total)
T14B0 001:084 JLINK_IsHalted()  returns FALSE (0001ms, 0552ms total)
T14B0 001:135 JLINK_IsHalted() -- CPU_ReadMem(2 bytes @ 0x20000000)  returns TRUE (0005ms, 0556ms total)
T14B0 001:140 JLINK_ReadReg(R15)  returns 0x20000000 (0000ms, 0551ms total)
T14B0 001:140 JLINK_ClrBPEx(BPHandle = 0x0000000E)  returns 0x00 (0000ms, 0551ms total)
T14B0 001:140 JLINK_ReadReg(R0)  returns 0x00000000 (0000ms, 0551ms total)
T14B0 001:140 JLINK_WriteMem(0x20000164, 0x0400 Bytes, ...) -- Data:  E5 E7 1C 4A 64 32 90 42 03 D1 48 68 40 F4 70 00 ... -- CPU_WriteMem(1024 bytes @ 0x20000164)  returns 0x400 (0013ms, 0564ms total)
T14B0 001:153 JLINK_WriteReg(R0, 0x08000C00)  returns 0x00 (0000ms, 0564ms total)
T14B0 001:153 JLINK_WriteReg(R1, 0x00000400)  returns 0x00 (0000ms, 0564ms total)
T14B0 001:153 JLINK_WriteReg(R2, 0x20000164)  returns 0x00 (0000ms, 0564ms total)
T14B0 001:153 JLINK_WriteReg(R3, 0x00000000)  returns 0x00 (0001ms, 0565ms total)
T14B0 001:154 JLINK_WriteReg(R4, 0x00000000)  returns 0x00 (0000ms, 0565ms total)
T14B0 001:154 JLINK_WriteReg(R5, 0x00000000)  returns 0x00 (0000ms, 0565ms total)
T14B0 001:154 JLINK_WriteReg(R6, 0x00000000)  returns 0x00 (0000ms, 0565ms total)
T14B0 001:154 JLINK_WriteReg(R7, 0x00000000)  returns 0x00 (0000ms, 0565ms total)
T14B0 001:154 JLINK_WriteReg(R8, 0x00000000)  returns 0x00 (0000ms, 0565ms total)
T14B0 001:154 JLINK_WriteReg(R9, 0x20000160)  returns 0x00 (0000ms, 0565ms total)
T14B0 001:154 JLINK_WriteReg(R10, 0x00000000)  returns 0x00 (0000ms, 0565ms total)
T14B0 001:154 JLINK_WriteReg(R11, 0x00000000)  returns 0x00 (0000ms, 0565ms total)
T14B0 001:154 JLINK_WriteReg(R12, 0x00000000)  returns 0x00 (0000ms, 0565ms total)
T14B0 001:154 JLINK_WriteReg(R13, 0x20000800)  returns 0x00 (0000ms, 0565ms total)
T14B0 001:154 JLINK_WriteReg(R14, 0x20000001)  returns 0x00 (0000ms, 0565ms total)
T14B0 001:154 JLINK_WriteReg(R15, 0x200000F4)  returns 0x00 (0000ms, 0565ms total)
T14B0 001:154 JLINK_WriteReg(XPSR, 0x01000000)  returns 0x00 (0000ms, 0565ms total)
T14B0 001:154 JLINK_WriteReg(MSP, 0x20000800)  returns 0x00 (0000ms, 0565ms total)
T14B0 001:154 JLINK_WriteReg(PSP, 0x20000800)  returns 0x00 (0000ms, 0565ms total)
T14B0 001:154 JLINK_WriteReg(CFBP, 0x00000000)  returns 0x00 (0000ms, 0565ms total)
T14B0 001:154 JLINK_SetBPEx(Addr = 0x20000000, Type = 0xFFFFFFF2)  returns 0x0000000F (0000ms, 0565ms total)
T14B0 001:154 JLINK_Go() -- CPU_WriteMem(4 bytes @ 0xE0002008) -- CPU_WriteMem(4 bytes @ 0xE000200C) -- CPU_WriteMem(4 bytes @ 0xE0002010) -- CPU_WriteMem(4 bytes @ 0xE0002014) -- CPU_WriteMem(4 bytes @ 0xE0002018) -- CPU_WriteMem(4 bytes @ 0xE000201C) (0009ms, 0574ms total)
T14B0 001:163 JLINK_IsHalted()  returns FALSE (0001ms, 0575ms total)
T14B0 001:214 JLINK_IsHalted() -- CPU_ReadMem(2 bytes @ 0x20000000)  returns TRUE (0005ms, 0579ms total)
T14B0 001:219 JLINK_ReadReg(R15)  returns 0x20000000 (0000ms, 0574ms total)
T14B0 001:219 JLINK_ClrBPEx(BPHandle = 0x0000000F)  returns 0x00 (0000ms, 0574ms total)
T14B0 001:219 JLINK_ReadReg(R0)  returns 0x00000000 (0000ms, 0574ms total)
T14B0 001:220 JLINK_WriteMem(0x20000164, 0x0400 Bytes, ...) -- Data:  7F 41 4F F0 E0 20 49 1E 41 61 05 4A F0 21 11 70 ... -- CPU_WriteMem(1024 bytes @ 0x20000164)  returns 0x400 (0013ms, 0587ms total)
T14B0 001:233 JLINK_WriteReg(R0, 0x08001000)  returns 0x00 (0000ms, 0587ms total)
T14B0 001:233 JLINK_WriteReg(R1, 0x00000400)  returns 0x00 (0000ms, 0587ms total)
T14B0 001:233 JLINK_WriteReg(R2, 0x20000164)  returns 0x00 (0000ms, 0587ms total)
T14B0 001:233 JLINK_WriteReg(R3, 0x00000000)  returns 0x00 (0000ms, 0587ms total)
T14B0 001:233 JLINK_WriteReg(R4, 0x00000000)  returns 0x00 (0000ms, 0587ms total)
T14B0 001:233 JLINK_WriteReg(R5, 0x00000000)  returns 0x00 (0000ms, 0587ms total)
T14B0 001:233 JLINK_WriteReg(R6, 0x00000000)  returns 0x00 (0001ms, 0588ms total)
T14B0 001:234 JLINK_WriteReg(R7, 0x00000000)  returns 0x00 (0000ms, 0588ms total)
T14B0 001:234 JLINK_WriteReg(R8, 0x00000000)  returns 0x00 (0000ms, 0588ms total)
T14B0 001:234 JLINK_WriteReg(R9, 0x20000160)  returns 0x00 (0000ms, 0588ms total)
T14B0 001:234 JLINK_WriteReg(R10, 0x00000000)  returns 0x00 (0000ms, 0588ms total)
T14B0 001:234 JLINK_WriteReg(R11, 0x00000000)  returns 0x00 (0000ms, 0588ms total)
T14B0 001:234 JLINK_WriteReg(R12, 0x00000000)  returns 0x00 (0000ms, 0588ms total)
T14B0 001:234 JLINK_WriteReg(R13, 0x20000800)  returns 0x00 (0000ms, 0588ms total)
T14B0 001:234 JLINK_WriteReg(R14, 0x20000001)  returns 0x00 (0000ms, 0588ms total)
T14B0 001:234 JLINK_WriteReg(R15, 0x200000F4)  returns 0x00 (0000ms, 0588ms total)
T14B0 001:234 JLINK_WriteReg(XPSR, 0x01000000)  returns 0x00 (0000ms, 0588ms total)
T14B0 001:234 JLINK_WriteReg(MSP, 0x20000800)  returns 0x00 (0000ms, 0588ms total)
T14B0 001:234 JLINK_WriteReg(PSP, 0x20000800)  returns 0x00 (0000ms, 0588ms total)
T14B0 001:234 JLINK_WriteReg(CFBP, 0x00000000)  returns 0x00 (0000ms, 0588ms total)
T14B0 001:234 JLINK_SetBPEx(Addr = 0x20000000, Type = 0xFFFFFFF2)  returns 0x00000010 (0000ms, 0588ms total)
T14B0 001:234 JLINK_Go() -- CPU_WriteMem(4 bytes @ 0xE0002008) -- CPU_WriteMem(4 bytes @ 0xE000200C) -- CPU_WriteMem(4 bytes @ 0xE0002010) -- CPU_WriteMem(4 bytes @ 0xE0002014) -- CPU_WriteMem(4 bytes @ 0xE0002018) -- CPU_WriteMem(4 bytes @ 0xE000201C) (0008ms, 0596ms total)
T14B0 001:242 JLINK_IsHalted()  returns FALSE (0001ms, 0597ms total)
T14B0 001:293 JLINK_IsHalted() -- CPU_ReadMem(2 bytes @ 0x20000000)  returns TRUE (0005ms, 0601ms total)
T14B0 001:298 JLINK_ReadReg(R15)  returns 0x20000000 (0000ms, 0596ms total)
T14B0 001:298 JLINK_ClrBPEx(BPHandle = 0x00000010)  returns 0x00 (0000ms, 0596ms total)
T14B0 001:298 JLINK_ReadReg(R0)  returns 0x00000000 (0000ms, 0596ms total)
T14B0 001:301 JLINK_WriteMem(0x20000164, 0x0400 Bytes, ...) -- Data:  FE E7 00 00 0F B4 05 4B 10 B5 03 A9 04 4A 02 98 ... -- CPU_WriteMem(1024 bytes @ 0x20000164)  returns 0x400 (0012ms, 0608ms total)
T14B0 001:314 JLINK_WriteReg(R0, 0x08001400)  returns 0x00 (0000ms, 0608ms total)
T14B0 001:314 JLINK_WriteReg(R1, 0x00000400)  returns 0x00 (0000ms, 0608ms total)
T14B0 001:314 JLINK_WriteReg(R2, 0x20000164)  returns 0x00 (0000ms, 0608ms total)
T14B0 001:314 JLINK_WriteReg(R3, 0x00000000)  returns 0x00 (0000ms, 0608ms total)
T14B0 001:314 JLINK_WriteReg(R4, 0x00000000)  returns 0x00 (0000ms, 0608ms total)
T14B0 001:314 JLINK_WriteReg(R5, 0x00000000)  returns 0x00 (0000ms, 0608ms total)
T14B0 001:314 JLINK_WriteReg(R6, 0x00000000)  returns 0x00 (0000ms, 0608ms total)
T14B0 001:314 JLINK_WriteReg(R7, 0x00000000)  returns 0x00 (0000ms, 0608ms total)
T14B0 001:314 JLINK_WriteReg(R8, 0x00000000)  returns 0x00 (0000ms, 0608ms total)
T14B0 001:314 JLINK_WriteReg(R9, 0x20000160)  returns 0x00 (0000ms, 0608ms total)
T14B0 001:314 JLINK_WriteReg(R10, 0x00000000)  returns 0x00 (0000ms, 0608ms total)
T14B0 001:314 JLINK_WriteReg(R11, 0x00000000)  returns 0x00 (0000ms, 0608ms total)
T14B0 001:314 JLINK_WriteReg(R12, 0x00000000)  returns 0x00 (0000ms, 0608ms total)
T14B0 001:314 JLINK_WriteReg(R13, 0x20000800)  returns 0x00 (0000ms, 0608ms total)
T14B0 001:314 JLINK_WriteReg(R14, 0x20000001)  returns 0x00 (0000ms, 0608ms total)
T14B0 001:314 JLINK_WriteReg(R15, 0x200000F4)  returns 0x00 (0000ms, 0608ms total)
T14B0 001:314 JLINK_WriteReg(XPSR, 0x01000000)  returns 0x00 (0000ms, 0608ms total)
T14B0 001:314 JLINK_WriteReg(MSP, 0x20000800)  returns 0x00 (0000ms, 0608ms total)
T14B0 001:315 JLINK_WriteReg(PSP, 0x20000800)  returns 0x00 (0000ms, 0609ms total)
T14B0 001:315 JLINK_WriteReg(CFBP, 0x00000000)  returns 0x00 (0000ms, 0609ms total)
T14B0 001:315 JLINK_SetBPEx(Addr = 0x20000000, Type = 0xFFFFFFF2)  returns 0x00000011 (0000ms, 0609ms total)
T14B0 001:315 JLINK_Go() -- CPU_WriteMem(4 bytes @ 0xE0002008) -- CPU_WriteMem(4 bytes @ 0xE000200C) -- CPU_WriteMem(4 bytes @ 0xE0002010) -- CPU_WriteMem(4 bytes @ 0xE0002014) -- CPU_WriteMem(4 bytes @ 0xE0002018) -- CPU_WriteMem(4 bytes @ 0xE000201C) (0009ms, 0618ms total)
T14B0 001:324 JLINK_IsHalted()  returns FALSE (0001ms, 0619ms total)
T14B0 001:375 JLINK_IsHalted() -- CPU_ReadMem(2 bytes @ 0x20000000)  returns TRUE (0005ms, 0623ms total)
T14B0 001:380 JLINK_ReadReg(R15)  returns 0x20000000 (0000ms, 0618ms total)
T14B0 001:380 JLINK_ClrBPEx(BPHandle = 0x00000011)  returns 0x00 (0000ms, 0618ms total)
T14B0 001:380 JLINK_ReadReg(R0)  returns 0x00000000 (0000ms, 0618ms total)
T14B0 001:381 JLINK_WriteMem(0x20000164, 0x0400 Bytes, ...) -- Data:  01 D1 40 B2 C1 17 00 29 06 DA 0A 46 00 21 40 42 ... -- CPU_WriteMem(1024 bytes @ 0x20000164)  returns 0x400 (0013ms, 0631ms total)
